# Hz S RI R 50.00
100000000.00000000     1.00021000     -0.00481646     -2.60937000     0.01300380     -0.00000285     0.00044291     0.88378400     -0.00836017
200000000.00000000     1.00037000     -0.01002650     -2.60601000     0.02780340     0.00001334     0.00104407     0.88091500     -0.00969820
300000000.00000000     1.00031000     -0.01481310     -2.60356000     0.03944060     -0.00000430     0.00159839     0.87985200     -0.01186630
400000000.00000000     1.00017000     -0.02013280     -2.60194000     0.05168680     0.00001085     0.00205506     0.87890200     -0.01471930
500000000.00000000     0.99985900     -0.02511390     -2.60208000     0.06257200     0.00010262     0.00251017     0.87891500     -0.01681430
600000000.00000000     0.99996500     -0.02982530     -2.60212000     0.07253900     0.00007928     0.00307132     0.87881600     -0.01908520
700000000.00000000     0.99980800     -0.03498500     -2.60199000     0.08574100     0.00006831     0.00364059     0.87813100     -0.02196500
800000000.00000000     0.99954700     -0.04010630     -2.59953000     0.09793940     0.00016182     0.00405646     0.87741400     -0.02472720
900000000.00000000     0.99920200     -0.04513590     -2.59982000     0.10941100     0.00012755     0.00459204     0.87749500     -0.02738580
1000000000.00000000     0.99917600     -0.05016250     -2.59806000     0.12072000     0.00018923     0.00508812     0.87711700     -0.02995000
1100000000.00000000     0.99885200     -0.05529680     -2.59720000     0.13229900     0.00015695     0.00553605     0.87717900     -0.03251170
1200000000.00000000     0.99870200     -0.06029760     -2.59731000     0.14572200     0.00017443     0.00599712     0.87669700     -0.03512480
1300000000.00000000     0.99819200     -0.06496860     -2.59588000     0.15615100     0.00011256     0.00641099     0.87634300     -0.03766720
1400000000.00000000     0.99805000     -0.07011450     -2.59528000     0.16853800     0.00000827     0.00680609     0.87611500     -0.04032030
1500000000.00000000     0.99765100     -0.07531890     -2.59371000     0.18111200     -0.00026455     0.00732760     0.87603400     -0.04294720
1600000000.00000000     0.99743800     -0.08062160     -2.59259000     0.19202900     -0.00061589     0.00806338     0.87578800     -0.04562960
1700000000.00000000     0.99715900     -0.08593160     -2.59148000     0.20471500     -0.00071668     0.00924879     0.87559400     -0.04834210
1800000000.00000000     0.99626900     -0.09108870     -2.58955000     0.21594000     -0.00029308     0.01005270     0.87487700     -0.05109880
1900000000.00000000     0.99563200     -0.09613440     -2.58964000     0.22700100     0.00001726     0.01066600     0.87493800     -0.05360530
2000000000.00000000     0.99483800     -0.10101800     -2.58824000     0.23953900     0.00033419     0.01117030     0.87431900     -0.05655370
2100000000.00000000     0.99411700     -0.10593100     -2.58674000     0.25053400     0.00048538     0.01157170     0.87430800     -0.05901790
2200000000.00000000     0.99361600     -0.11083000     -2.58541000     0.26298100     0.00061020     0.01204080     0.87390500     -0.06156720
2300000000.00000000     0.99299100     -0.11602000     -2.58310000     0.27484600     0.00077137     0.01255020     0.87345100     -0.06448170
2400000000.00000000     0.99227900     -0.12103900     -2.58265000     0.28718400     0.00078121     0.01300600     0.87329700     -0.06692920
2500000000.00000000     0.99160100     -0.12595900     -2.58038000     0.29905700     0.00085061     0.01352550     0.87283100     -0.06964970
2600000000.00000000     0.99094400     -0.13112500     -2.57871000     0.31071200     0.00095587     0.01396090     0.87254400     -0.07235140
2700000000.00000000     0.99011100     -0.13602400     -2.57658000     0.32279200     0.00103869     0.01445850     0.87203900     -0.07504740
2800000000.00000000     0.98941300     -0.14083800     -2.57483000     0.33404100     0.00116354     0.01496170     0.87181900     -0.07775680
2900000000.00000000     0.98859700     -0.14606100     -2.57278000     0.34633600     0.00123690     0.01546740     0.87153700     -0.08020370
3000000000.00000000     0.98795600     -0.15104500     -2.57159000     0.35919500     0.00122824     0.01591470     0.87094100     -0.08304340
3100000000.00000000     0.98690600     -0.15604000     -2.56842000     0.37025500     0.00136960     0.01652880     0.87064500     -0.08562660
3200000000.00000000     0.98594100     -0.16118700     -2.56777000     0.38172100     0.00131423     0.01704290     0.87068600     -0.08819840
3300000000.00000000     0.98533700     -0.16603500     -2.56434000     0.39331100     0.00140195     0.01748580     0.87034100     -0.09075580
3400000000.00000000     0.98423900     -0.17129800     -2.56241000     0.40464600     0.00134083     0.01805530     0.86981000     -0.09356510
3500000000.00000000     0.98325200     -0.17622300     -2.55997000     0.41558500     0.00145922     0.01858020     0.86938200     -0.09621590
3600000000.00000000     0.98239200     -0.18119600     -2.55651000     0.42736700     0.00139033     0.01923800     0.86885300     -0.09913240
3700000000.00000000     0.98109000     -0.18610200     -2.55493000     0.43902000     0.00145554     0.01991740     0.86882000     -0.10153300
3800000000.00000000     0.97982100     -0.19115600     -2.55215000     0.45040000     0.00146764     0.02050010     0.86821900     -0.10436500
3900000000.00000000     0.97881800     -0.19608900     -2.54927000     0.46105400     0.00162071     0.02122790     0.86798700     -0.10697000
4000000000.00000000     0.97769200     -0.20095900     -2.54666000     0.47300200     0.00187039     0.02187750     0.86760600     -0.10963600
4100000000.00000000     0.97663900     -0.20578100     -2.54310000     0.48387200     0.00202048     0.02241360     0.86717300     -0.11236900
4200000000.00000000     0.97550800     -0.21070600     -2.54200000     0.49478700     0.00225531     0.02311770     0.86661000     -0.11509500
4300000000.00000000     0.97392300     -0.21552000     -2.53890000     0.50836300     0.00242747     0.02367390     0.86600200     -0.11743600
4400000000.00000000     0.97254400     -0.22061400     -2.53610000     0.51906500     0.00263532     0.02426620     0.86552700     -0.12020800
4500000000.00000000     0.97139800     -0.22561400     -2.53370000     0.53153700     0.00288509     0.02475260     0.86499000     -0.12274800
4600000000.00000000     0.97006000     -0.23020100     -2.53028000     0.54220000     0.00317734     0.02538070     0.86451700     -0.12521400
4700000000.00000000     0.96862400     -0.23505600     -2.52668000     0.55325300     0.00335771     0.02595070     0.86423700     -0.12802600
4800000000.00000000     0.96745400     -0.23995700     -2.52468000     0.56592300     0.00358726     0.02648870     0.86345100     -0.13071600
4900000000.00000000     0.96588300     -0.24488900     -2.52135000     0.57714600     0.00380870     0.02709360     0.86287900     -0.13350600
5000000000.00000000     0.96456000     -0.24978200     -2.51766000     0.58847600     0.00409181     0.02758830     0.86243200     -0.13626400
5100000000.00000000     0.96296000     -0.25448700     -2.51391000     0.59898800     0.00430461     0.02807780     0.86179200     -0.13878600
5200000000.00000000     0.96147000     -0.25937600     -2.50995000     0.61002700     0.00454253     0.02859020     0.86132500     -0.14148200
5300000000.00000000     0.95998300     -0.26414600     -2.50715000     0.62217800     0.00476379     0.02913150     0.86054300     -0.14409800
5400000000.00000000     0.95856500     -0.26877700     -2.50357000     0.63354100     0.00502709     0.02961110     0.86007200     -0.14684500
5500000000.00000000     0.95681000     -0.27365800     -2.50013000     0.64443700     0.00528312     0.03011110     0.85934300     -0.14947200
5600000000.00000000     0.95537900     -0.27865400     -2.49635000     0.65601600     0.00555581     0.03066320     0.85878500     -0.15226500
5700000000.00000000     0.95358600     -0.28326600     -2.49214000     0.66581900     0.00575549     0.03107780     0.85787800     -0.15473800
5800000000.00000000     0.95223100     -0.28782900     -2.48906000     0.67596600     0.00590265     0.03163520     0.85775300     -0.15740500
5900000000.00000000     0.95066600     -0.29278700     -2.48576000     0.68986200     0.00616446     0.03216320     0.85725200     -0.15987500
6000000000.00000000     0.94867700     -0.29753100     -2.48253000     0.70004000     0.00633922     0.03258660     0.85665800     -0.16259700
6100000000.00000000     0.94694700     -0.30219700     -2.47864000     0.71109800     0.00659845     0.03306440     0.85563100     -0.16506700
6200000000.00000000     0.94520900     -0.30692500     -2.47396000     0.72246100     0.00685187     0.03364850     0.85509300     -0.16787100
6300000000.00000000     0.94344800     -0.31181900     -2.47090000     0.73232400     0.00710712     0.03413020     0.85475300     -0.17058900
6400000000.00000000     0.94183800     -0.31630600     -2.46782000     0.74385800     0.00734024     0.03462770     0.85390500     -0.17281700
6500000000.00000000     0.93970600     -0.32099300     -2.46156000     0.75546600     0.00757090     0.03517460     0.85320500     -0.17565800
6600000000.00000000     0.93792300     -0.32555400     -2.46008000     0.76654200     0.00776238     0.03555780     0.85236900     -0.17832800
6700000000.00000000     0.93613000     -0.33039400     -2.45530000     0.77774700     0.00812121     0.03606000     0.85166200     -0.18104600
6800000000.00000000     0.93420400     -0.33511500     -2.45060000     0.78884100     0.00834806     0.03663910     0.85095700     -0.18366200
6900000000.00000000     0.93207000     -0.33983100     -2.44691000     0.80063200     0.00850129     0.03706790     0.85033200     -0.18602600
7000000000.00000000     0.93009700     -0.34427700     -2.44074000     0.81145000     0.00881867     0.03758800     0.84951700     -0.18870400
7100000000.00000000     0.92812000     -0.34899100     -2.43668000     0.82161400     0.00907108     0.03805760     0.84856300     -0.19133300
7200000000.00000000     0.92610700     -0.35360700     -2.43355000     0.83408400     0.00940992     0.03852270     0.84791100     -0.19411600
7300000000.00000000     0.92410600     -0.35828100     -2.42777000     0.84338500     0.00967472     0.03901590     0.84705300     -0.19670300
7400000000.00000000     0.92199800     -0.36283900     -2.42352000     0.85493200     0.00986001     0.03958710     0.84629300     -0.19924600
7500000000.00000000     0.91969300     -0.36751200     -2.41755000     0.86725200     0.01019320     0.04016060     0.84528900     -0.20206100
7600000000.00000000     0.91747200     -0.37211100     -2.41283000     0.87676300     0.01036200     0.04064900     0.84457400     -0.20440800
7700000000.00000000     0.91545100     -0.37656300     -2.40852000     0.88865600     0.01064830     0.04102940     0.84362100     -0.20717100
7800000000.00000000     0.91319500     -0.38132400     -2.40331000     0.89873400     0.01096810     0.04157370     0.84288300     -0.20967700
7900000000.00000000     0.91078400     -0.38553700     -2.39710000     0.90856700     0.01134890     0.04206870     0.84168600     -0.21232700
8000000000.00000000     0.90869500     -0.39023500     -2.39344000     0.92023100     0.01158310     0.04255670     0.84096700     -0.21472500
8100000000.00000000     0.90618000     -0.39463300     -2.38636000     0.92953900     0.01186130     0.04310940     0.84020600     -0.21769400
8200000000.00000000     0.90427600     -0.39889000     -2.38273000     0.94111300     0.01207330     0.04365600     0.83969200     -0.21997000
8300000000.00000000     0.90184700     -0.40326200     -2.37679000     0.95186000     0.01244030     0.04410080     0.83866700     -0.22271400
8400000000.00000000     0.89939600     -0.40776200     -2.37277000     0.96115000     0.01279610     0.04459430     0.83749400     -0.22488200
8500000000.00000000     0.89715400     -0.41212400     -2.36651000     0.97049700     0.01311780     0.04507180     0.83672700     -0.22756900
8600000000.00000000     0.89464000     -0.41667300     -2.36060000     0.98169200     0.01349040     0.04559760     0.83619500     -0.23013500
8700000000.00000000     0.89227100     -0.42097900     -2.35586000     0.99244500     0.01378170     0.04616990     0.83513700     -0.23254300
8800000000.00000000     0.89005800     -0.42513900     -2.34946000     1.00275000     0.01412480     0.04672840     0.83408300     -0.23515900
8900000000.00000000     0.88745900     -0.42935900     -2.34264000     1.01392000     0.01444620     0.04712070     0.83281000     -0.23780100
9000000000.00000000     0.88513000     -0.43365400     -2.34036000     1.02236000     0.01480970     0.04762010     0.83212800     -0.24012800
9100000000.00000000     0.88276300     -0.43792200     -2.33447000     1.03193000     0.01518650     0.04815590     0.83120300     -0.24265100
9200000000.00000000     0.88027500     -0.44223500     -2.32850000     1.04191000     0.01563540     0.04860160     0.83015000     -0.24508800
9300000000.00000000     0.87755600     -0.44664700     -2.32239000     1.05321000     0.01597810     0.04912920     0.82902500     -0.24795900
9400000000.00000000     0.87496800     -0.45066800     -2.31648000     1.06324000     0.01637820     0.04960330     0.82792900     -0.25028300
9500000000.00000000     0.87234100     -0.45493600     -2.31115000     1.07499000     0.01675100     0.04999090     0.82705800     -0.25278600
9600000000.00000000     0.86957100     -0.45897900     -2.30748000     1.08358000     0.01723880     0.05051430     0.82588200     -0.25527300
9700000000.00000000     0.86692900     -0.46308200     -2.29947000     1.09275000     0.01765730     0.05096300     0.82479100     -0.25793600
9800000000.00000000     0.86423400     -0.46763100     -2.29218000     1.10317000     0.01802670     0.05146930     0.82330300     -0.26051500
9900000000.00000000     0.86167100     -0.47183600     -2.28740000     1.11335000     0.01847670     0.05189640     0.82232800     -0.26274300
10000000000.00000000     0.85869600     -0.47590500     -2.28175000     1.12402000     0.01887120     0.05220770     0.82101500     -0.26541300
10100000000.00000000     0.85571000     -0.48017000     -2.27622000     1.13521000     0.01927180     0.05280370     0.82007500     -0.26776000
10200000000.00000000     0.85305600     -0.48441000     -2.27000000     1.14229000     0.01972240     0.05319420     0.81918400     -0.27029300
10300000000.00000000     0.85025600     -0.48856600     -2.26164000     1.15257000     0.02025040     0.05358550     0.81776400     -0.27301600
10400000000.00000000     0.84750900     -0.49288800     -2.25391000     1.16267000     0.02057800     0.05410820     0.81680300     -0.27546800
10500000000.00000000     0.84455800     -0.49663100     -2.24797000     1.17421000     0.02100760     0.05445410     0.81534000     -0.27805300
10600000000.00000000     0.84194600     -0.50054000     -2.24000000     1.18373000     0.02138070     0.05482390     0.81419000     -0.28039100
10700000000.00000000     0.83905500     -0.50489100     -2.23740000     1.19281000     0.02181290     0.05517870     0.81301000     -0.28295700
10800000000.00000000     0.83610200     -0.50893800     -2.23082000     1.20265000     0.02214260     0.05558270     0.81184700     -0.28537700
10900000000.00000000     0.83317000     -0.51295100     -2.22234000     1.20876000     0.02265530     0.05612210     0.81091600     -0.28799200
11000000000.00000000     0.83041300     -0.51710900     -2.21584000     1.21970000     0.02317620     0.05646280     0.80962700     -0.29014900
11100000000.00000000     0.82733400     -0.52108600     -2.20983000     1.23043000     0.02358930     0.05692870     0.80868200     -0.29257300
11200000000.00000000     0.82440400     -0.52459800     -2.20377000     1.23934000     0.02400940     0.05733870     0.80745500     -0.29520500
11300000000.00000000     0.82151700     -0.52854100     -2.19797000     1.25043000     0.02449210     0.05777650     0.80597400     -0.29770500
11400000000.00000000     0.81854200     -0.53234000     -2.19217000     1.25756000     0.02492670     0.05809180     0.80485800     -0.29997300
11500000000.00000000     0.81533800     -0.53662300     -2.18531000     1.26664000     0.02553330     0.05852990     0.80367300     -0.30229500
11600000000.00000000     0.81245300     -0.54047300     -2.17718000     1.27712000     0.02611470     0.05890980     0.80266900     -0.30478100
11700000000.00000000     0.80919900     -0.54418200     -2.16960000     1.28648000     0.02650550     0.05927360     0.80141000     -0.30726800
11800000000.00000000     0.80588100     -0.54813000     -2.16310000     1.29617000     0.02690580     0.05965020     0.80003600     -0.30950400
11900000000.00000000     0.80291800     -0.55198200     -2.15673000     1.30584000     0.02736590     0.06008700     0.79841700     -0.31197600
12000000000.00000000     0.79972100     -0.55542400     -2.15068000     1.31334000     0.02786130     0.06046030     0.79707300     -0.31424000
12100000000.00000000     0.79610500     -0.55945600     -2.14316000     1.32400000     0.02841900     0.06074450     0.79565000     -0.31679100
12200000000.00000000     0.79294100     -0.56305500     -2.13498000     1.33407000     0.02891700     0.06113330     0.79452500     -0.31873900
12300000000.00000000     0.78959700     -0.56695900     -2.12832000     1.34270000     0.02941550     0.06164630     0.79319700     -0.32132500
12400000000.00000000     0.78580400     -0.57071900     -2.12227000     1.35439000     0.02990950     0.06187440     0.79147700     -0.32387500
12500000000.00000000     0.78233000     -0.57428400     -2.11262000     1.36284000     0.03029070     0.06222380     0.78989300     -0.32598800
12600000000.00000000     0.77875800     -0.57831700     -2.10632000     1.37195000     0.03093880     0.06254190     0.78841100     -0.32842400
12700000000.00000000     0.77512800     -0.58192800     -2.09673000     1.38303000     0.03157590     0.06281690     0.78677400     -0.33093300
12800000000.00000000     0.77149200     -0.58572400     -2.08857000     1.39153000     0.03217190     0.06317620     0.78524400     -0.33348100
12900000000.00000000     0.76784900     -0.58908700     -2.08150000     1.40083000     0.03262960     0.06349190     0.78355700     -0.33568900
13000000000.00000000     0.76429500     -0.59267900     -2.07214000     1.40801000     0.03311550     0.06387750     0.78208500     -0.33775500
13100000000.00000000     0.76065600     -0.59623700     -2.06545000     1.41747000     0.03355920     0.06411810     0.78036200     -0.34029300
13200000000.00000000     0.75673700     -0.59989400     -2.05542000     1.42642000     0.03423820     0.06428200     0.77880000     -0.34280400
13300000000.00000000     0.75283800     -0.60355900     -2.04824000     1.43545000     0.03490820     0.06454190     0.77700100     -0.34494300
13400000000.00000000     0.74910100     -0.60689600     -2.04017000     1.44482000     0.03564510     0.06479960     0.77523600     -0.34727400
13500000000.00000000     0.74533500     -0.61000100     -2.02867000     1.45269000     0.03601510     0.06491880     0.77380300     -0.34940100
13600000000.00000000     0.74197900     -0.61331600     -2.02128000     1.46062000     0.03647230     0.06534300     0.77213100     -0.35168400
13700000000.00000000     0.73813900     -0.61619200     -2.01019000     1.47059000     0.03692310     0.06545170     0.77043600     -0.35350500
13800000000.00000000     0.73447800     -0.61929300     -2.00211000     1.47873000     0.03732190     0.06554520     0.76870900     -0.35556000
